[2025-Apr-22 11:32:04] [ info] --------------------------------------------------------------------------------
[2025-Apr-22 11:32:04] [ info] nrfjprog -f nrf52 --eraseall --log 
[2025-Apr-22 11:32:04] [ info] nrfjprog version 10.15.3 external
[2025-Apr-22 11:32:04] [ info] --------------------------------------------------------------------------------
[2025-Apr-22 11:32:04] [ info] Load library at /opt/nrf-command-line-tools/lib/libnrfjprogdll.so.
[2025-Apr-22 11:32:04] [ info] Library loaded, loading member functions.
[2025-Apr-22 11:32:04] [ info] Member functions succesfully loaded.
[2025-Apr-22 11:32:04] [debug] [ Client] - open
[2025-Apr-22 11:32:04] [debug] [ Client] - start
[2025-Apr-22 11:32:04] [ info] [ Client] - stdout: Jlinkarm nRF Worker ready. Handling sequence 18020a64-cdd7-4caf-84cd-8902f0fba58e.
[2025-Apr-22 11:32:04] [debug] [SeggerBackend] - Logger sink registered in Segger backend logger
[2025-Apr-22 11:32:04] [debug] [  JLink] - Logger sink registered in JLink logger
[2025-Apr-22 11:32:04] [debug] [  nRF52] - open
[2025-Apr-22 11:32:04] [debug] [  nRF52] - just_check_family
[2025-Apr-22 11:32:04] [debug] [SeggerBackend] - open_dll
[2025-Apr-22 11:32:04] [debug] [SeggerBackend] - No J-Link DLL path was provided. Attempting to auto detect.
[2025-Apr-22 11:32:04] [ info] [SeggerBackend] - Load library at /opt/SEGGER/JLink/libjlinkarm.so.7.58.2.
[2025-Apr-22 11:32:04] [trace] [ Client] - Command open executed for 3 milliseconds with result 0
[2025-Apr-22 11:32:04] [debug] [ Client] - enum_emu_snr
[2025-Apr-22 11:32:04] [ info] [SeggerBackend] - Library loaded, loading member functions.
[2025-Apr-22 11:32:04] [ info] [SeggerBackend] - Member functions succesfully loaded.
[2025-Apr-22 11:32:04] [debug] [SeggerBackend] - dll_version
[2025-Apr-22 11:32:04] [ info] [SeggerBackend] - Segger dll version 7.58.b loaded.
[2025-Apr-22 11:32:04] [trace] [ Worker] - Command open executed for 2 milliseconds with result 0
[2025-Apr-22 11:32:04] [debug] [  nRF52] - enum_emu_con_info
[2025-Apr-22 11:32:04] [debug] [SeggerBackend] - is_connected_to_emu
[2025-Apr-22 11:32:04] [debug] [SeggerBackend] - enum_emu_con_info
[2025-Apr-22 11:32:05] [trace] [ Client] - Command enum_emu_con_info executed for 218 milliseconds with result 0
[2025-Apr-22 11:32:05] [debug] [ Client] - connect_to_emu_with_snr
[2025-Apr-22 11:32:05] [debug] [SeggerBackend] - is_connected_to_emu
[2025-Apr-22 11:32:05] [trace] [ Worker] - Command enum_emu_con_info executed for 218 milliseconds with result 0
[2025-Apr-22 11:32:05] [debug] [  nRF52] - connect_to_emu_with_snr
[2025-Apr-22 11:32:05] [debug] [SeggerBackend] - is_connected_to_emu
[2025-Apr-22 11:32:05] [debug] [SeggerBackend] - connect_to_emu_with_snr
[2025-Apr-22 11:32:05] [debug] [SeggerBackend] - is_connected_to_emu
[2025-Apr-22 11:32:05] [debug] [SeggerBackend] - ---just_enum_emu_snr
[2025-Apr-22 11:32:05] [debug] [SeggerBackend] - ---just_get_num_emus
[2025-Apr-22 11:32:05] [debug] [SeggerBackend] - ---just_connect_to_emu_with_snr
[2025-Apr-22 11:32:05] [debug] [SeggerBackend] - ---just_connect_to_emu_without_snr
[2025-Apr-22 11:32:05] [debug] [SeggerBackend] - Segger logging enabled.
[2025-Apr-22 11:32:05] [trace] [  JLink] - Firmware: J-Link OB-nRF5340-NordicSemi compiled Dec  3 2021 15:46:49
[2025-Apr-22 11:32:05] [trace] [  JLink] - Firmware: J-Link OB-nRF5340-NordicSemi compiled Dec  3 2021 15:46:49
[2025-Apr-22 11:32:05] [trace] [  JLink] - Hardware: V1.00
[2025-Apr-22 11:32:05] [trace] [  JLink] - S/N: 1050341849
[2025-Apr-22 11:32:05] [trace] [  JLink] - OEM: SEGGER
[2025-Apr-22 11:32:05] [trace] [  JLink] - Feature(s): None
[2025-Apr-22 11:32:05] [trace] [  JLink] - TELNET listener socket opened on port 19021
[2025-Apr-22 11:32:05] [trace] [  JLink] - WEBSRV WEBSRV_Init(): Starting webserver thread(s)
[2025-Apr-22 11:32:05] [trace] [  JLink] - WEBSRV Webserver running on local port 19080
[2025-Apr-22 11:32:05] [trace] [  JLink] - - 18.890ms returns "O.K."  
[2025-Apr-22 11:32:05] [trace] [  JLink] - JLINK_HasError()  
[2025-Apr-22 11:32:05] [trace] [  JLink] - JLINK_Lock()  
[2025-Apr-22 11:32:05] [trace] [  JLink] - JLINK_GetHWStatus(...)  
[2025-Apr-22 11:32:05] [trace] [  JLink] - - 0.172ms returns 0  
[2025-Apr-22 11:32:05] [trace] [  JLink] - JLINK_HasError()  
[2025-Apr-22 11:32:05] [trace] [  JLink] - JLINK_ExecCommand("SetRestartOnClose = 0", ...).   
[2025-Apr-22 11:32:05] [trace] [  JLink] - - 0.004ms returns 0x01  
[2025-Apr-22 11:32:05] [trace] [  JLink] - JLINK_HasError()  
[2025-Apr-22 11:32:05] [trace] [  JLink] - JLINK_ExecCommand("DisableFlashDL", ...).   
[2025-Apr-22 11:32:05] [trace] [  JLink] - - 0.012ms returns 0x00  
[2025-Apr-22 11:32:05] [trace] [  JLink] - JLINK_HasError()  
[2025-Apr-22 11:32:05] [trace] [  JLink] - JLINK_ExecCommand("ExcludeFlashCacheRange 0x0-0xFFFFFFFF", ...).   
[2025-Apr-22 11:32:05] [trace] [  JLink] - - 0.004ms returns 0x00  
[2025-Apr-22 11:32:05] [trace] [  JLink] - JLINK_HasError()  
[2025-Apr-22 11:32:05] [trace] [  JLink] - JLINK_SetHookUnsecureDialog  
[2025-Apr-22 11:32:05] [trace] [  JLink] - JLINK_SetHookUnsecureDialog(...)
[2025-Apr-22 11:32:05] [trace] [  JLink] - - 0.014ms returns 0  
[2025-Apr-22 11:32:05] [trace] [  JLink] - JLINK_HasError()  
[2025-Apr-22 11:32:05] [trace] [  JLink] - JLINK_TIF_Select(JLINKARM_TIF_SWD)  
[2025-Apr-22 11:32:05] [trace] [  JLink] - - 0.443ms returns 0x00  
[2025-Apr-22 11:32:05] [trace] [  JLink] - JLINK_HasError()  
[2025-Apr-22 11:32:05] [trace] [  JLink] - JLINK_SetSpeed(2000)  
[2025-Apr-22 11:32:05] [trace] [  JLink] - - 0.107ms  
[2025-Apr-22 11:32:05] [trace] [  JLink] - JLINK_HasError()  
[2025-Apr-22 11:32:05] [trace] [  JLink] - JLINK_GetSN()  
[2025-Apr-22 11:32:05] [trace] [  JLink] - - 0.007ms returns 1050341849  
[2025-Apr-22 11:32:05] [trace] [  JLink] - JLINK_HasError()  
[2025-Apr-22 11:32:05] [debug] [SeggerBackend] - read_debug_port_idr
[2025-Apr-22 11:32:05] [debug] [SeggerBackend] - read_debug_port_register
[2025-Apr-22 11:32:05] [debug] [SeggerBackend] - ---just_read_debug_port_register
[2025-Apr-22 11:32:05] [debug] [SeggerBackend] - coresight_configure
[2025-Apr-22 11:32:05] [trace] [  JLink] - JLINK_CORESIGHT_Configure()  
[2025-Apr-22 11:32:05] [trace] [ Client] - Command connect_to_emu_with_snr executed for 577 milliseconds with result 0
[2025-Apr-22 11:32:05] [debug] [ Client] - read_connected_emu_snr
[2025-Apr-22 11:32:05] [trace] [ Client] - Command read_connected_emu_snr executed for 0 milliseconds with result 0
[2025-Apr-22 11:32:05] [debug] [ Client] - read_device_info
[2025-Apr-22 11:32:05] [trace] [  JLink] - - 0.372ms returns 0  
[2025-Apr-22 11:32:05] [trace] [  JLink] - JLINK_HasError()  
[2025-Apr-22 11:32:05] [debug] [SeggerBackend] - ---just_select_debug_port_register
[2025-Apr-22 11:32:05] [debug] [SeggerBackend] - Select AP 255, DP Bank 0, AP Bank 255
[2025-Apr-22 11:32:05] [trace] [  JLink] - JLINK_CORESIGHT_WriteAPDPReg(DP reg 0x02, 0x00000000)  
[2025-Apr-22 11:32:05] [trace] [  JLink] - - 0.207ms returns 0  
[2025-Apr-22 11:32:05] [trace] [  JLink] - JLINK_HasError()  
[2025-Apr-22 11:32:05] [trace] [  JLink] - JLINK_CORESIGHT_ReadAPDPReg(DP reg 0x00)  
[2025-Apr-22 11:32:05] [trace] [  JLink] - Value=0x2BA01477
[2025-Apr-22 11:32:05] [trace] [  JLink] - - 0.170ms returns 0  
[2025-Apr-22 11:32:05] [trace] [  JLink] - JLINK_HasError()  
[2025-Apr-22 11:32:05] [trace] [  JLink] - - 0.008ms  
[2025-Apr-22 11:32:05] [trace] [ Worker] - Command connect_to_emu_with_snr executed for 577 milliseconds with result 0
[2025-Apr-22 11:32:05] [debug] [  nRF52] - read_connected_emu_snr
[2025-Apr-22 11:32:05] [debug] [SeggerBackend] - is_connected_to_emu
[2025-Apr-22 11:32:05] [trace] [  JLink] - JLINK_IsOpen()  
[2025-Apr-22 11:32:05] [trace] [  JLink] - - 0.009ms returns 0x01  
[2025-Apr-22 11:32:05] [trace] [  JLink] - JLINK_HasError()  
[2025-Apr-22 11:32:05] [trace] [  JLink] - JLINK_Lock()  
[2025-Apr-22 11:32:05] [debug] [SeggerBackend] - read_connected_emu_snr
[2025-Apr-22 11:32:05] [trace] [  JLink] - - 0.006ms  
[2025-Apr-22 11:32:05] [trace] [ Worker] - Command read_connected_emu_snr executed for 0 milliseconds with result 0
[2025-Apr-22 11:32:05] [debug] [  nRF52] - read_device_info
[2025-Apr-22 11:32:05] [debug] [SeggerBackend] - is_connected_to_emu
[2025-Apr-22 11:32:05] [trace] [  JLink] - JLINK_IsOpen()  
[2025-Apr-22 11:32:05] [trace] [  JLink] - - 0.007ms returns 0x01  
[2025-Apr-22 11:32:05] [trace] [  JLink] - JLINK_HasError()  
[2025-Apr-22 11:32:05] [trace] [  JLink] - JLINK_Lock()  
[2025-Apr-22 11:32:05] [debug] [  nRF52] - Just_read_device_version
[2025-Apr-22 11:32:05] [debug] [  nRF52] - Just_readback_status
[2025-Apr-22 11:32:05] [debug] [  nRF52] - Just_is_ctrl_ap_available
[2025-Apr-22 11:32:05] [debug] [SeggerBackend] - read_access_port_register
[2025-Apr-22 11:32:05] [debug] [SeggerBackend] - ---just_read_access_port_register
[2025-Apr-22 11:32:05] [debug] [SeggerBackend] - ---just_is_debug_region_powered
[2025-Apr-22 11:32:05] [debug] [SeggerBackend] - ---just_read_debug_port_register
[2025-Apr-22 11:32:05] [debug] [SeggerBackend] - ---just_select_debug_port_register
[2025-Apr-22 11:32:05] [debug] [SeggerBackend] - Select AP 255, DP Bank 0, AP Bank 255
[2025-Apr-22 11:32:05] [trace] [  JLink] - JLINK_CORESIGHT_WriteAPDPReg(DP reg 0x02, 0x00000000)  
[2025-Apr-22 11:32:05] [trace] [  JLink] - - 0.167ms returns 0  
[2025-Apr-22 11:32:05] [trace] [  JLink] - JLINK_HasError()  
[2025-Apr-22 11:32:05] [trace] [  JLink] - JLINK_CORESIGHT_ReadAPDPReg(DP reg 0x01)  
[2025-Apr-22 11:32:05] [trace] [  JLink] - Value=0xF0000040
[2025-Apr-22 11:32:05] [trace] [  JLink] - - 0.188ms returns 0  
[2025-Apr-22 11:32:05] [trace] [  JLink] - JLINK_HasError()  
[2025-Apr-22 11:32:05] [debug] [SeggerBackend] - ---just_select_access_port_register
[2025-Apr-22 11:32:05] [debug] [SeggerBackend] - Select AP 1, DP Bank 0, AP Bank 15
[2025-Apr-22 11:32:05] [trace] [  JLink] - JLINK_CORESIGHT_WriteAPDPReg(DP reg 0x02, 0x010000F0)  
[2025-Apr-22 11:32:05] [trace] [  JLink] - - 0.193ms returns 0  
[2025-Apr-22 11:32:05] [trace] [  JLink] - JLINK_HasError()  
[2025-Apr-22 11:32:05] [trace] [  JLink] - JLINK_CORESIGHT_ReadAPDPReg(AP reg 0x03)  
[2025-Apr-22 11:32:05] [trace] [  JLink] - Value=0x02880000
[2025-Apr-22 11:32:05] [trace] [  JLink] - - 0.195ms returns 0  
[2025-Apr-22 11:32:05] [trace] [  JLink] - JLINK_HasError()  
[2025-Apr-22 11:32:05] [debug] [SeggerBackend] - read_access_port_register
[2025-Apr-22 11:32:05] [debug] [SeggerBackend] - ---just_read_access_port_register
[2025-Apr-22 11:32:05] [debug] [SeggerBackend] - ---just_select_access_port_register
[2025-Apr-22 11:32:05] [trace] [  JLink] - JLINK_CORESIGHT_ReadAPDPReg(AP reg 0x03)  
[2025-Apr-22 11:32:05] [trace] [  JLink] - Value=0x02880000
[2025-Apr-22 11:32:05] [trace] [  JLink] - - 0.192ms returns 0  
[2025-Apr-22 11:32:05] [trace] [  JLink] - JLINK_HasError()  
[2025-Apr-22 11:32:05] [debug] [SeggerBackend] - read_access_port_register
[2025-Apr-22 11:32:05] [debug] [SeggerBackend] - ---just_read_access_port_register
[2025-Apr-22 11:32:05] [debug] [SeggerBackend] - ---just_select_access_port_register
[2025-Apr-22 11:32:05] [trace] [  JLink] - JLINK_CORESIGHT_ReadAPDPReg(AP reg 0x03)  
[2025-Apr-22 11:32:05] [trace] [  JLink] - Value=0x02880000
[2025-Apr-22 11:32:05] [trace] [  JLink] - - 0.177ms returns 0  
[2025-Apr-22 11:32:05] [trace] [  JLink] - JLINK_HasError()  
[2025-Apr-22 11:32:05] [debug] [SeggerBackend] - read_access_port_register
[2025-Apr-22 11:32:05] [debug] [SeggerBackend] - ---just_read_access_port_register
[2025-Apr-22 11:32:05] [debug] [SeggerBackend] - ---just_select_access_port_register
[2025-Apr-22 11:32:05] [trace] [  JLink] - JLINK_CORESIGHT_ReadAPDPReg(AP reg 0x03)  
[2025-Apr-22 11:32:05] [trace] [  JLink] - Value=0x02880000
[2025-Apr-22 11:32:05] [trace] [  JLink] - - 0.189ms returns 0  
[2025-Apr-22 11:32:05] [trace] [  JLink] - JLINK_HasError()  
[2025-Apr-22 11:32:05] [debug] [SeggerBackend] - read_access_port_register
[2025-Apr-22 11:32:05] [debug] [SeggerBackend] - ---just_read_access_port_register
[2025-Apr-22 11:32:05] [debug] [SeggerBackend] - ---just_select_access_port_register
[2025-Apr-22 11:32:05] [debug] [SeggerBackend] - Select AP 1, DP Bank 0, AP Bank 0
[2025-Apr-22 11:32:05] [trace] [  JLink] - JLINK_CORESIGHT_WriteAPDPReg(DP reg 0x02, 0x01000000)  
[2025-Apr-22 11:32:05] [trace] [  JLink] - - 0.206ms returns 0  
[2025-Apr-22 11:32:05] [trace] [  JLink] - JLINK_HasError()  
[2025-Apr-22 11:32:05] [trace] [  JLink] - JLINK_CORESIGHT_ReadAPDPReg(AP reg 0x03)  
[2025-Apr-22 11:32:05] [trace] [  JLink] - Value=0x00000001
[2025-Apr-22 11:32:05] [trace] [  JLink] - - 0.180ms returns 0  
[2025-Apr-22 11:32:05] [trace] [  JLink] - JLINK_HasError()  
[2025-Apr-22 11:32:05] [debug] [SeggerBackend] - read_access_port_register
[2025-Apr-22 11:32:05] [debug] [SeggerBackend] - ---just_read_access_port_register
[2025-Apr-22 11:32:05] [debug] [SeggerBackend] - ---just_select_access_port_register
[2025-Apr-22 11:32:05] [trace] [  JLink] - JLINK_CORESIGHT_ReadAPDPReg(AP reg 0x03)  
[2025-Apr-22 11:32:05] [trace] [  JLink] - Value=0x00000001
[2025-Apr-22 11:32:05] [trace] [  JLink] - - 0.176ms returns 0  
[2025-Apr-22 11:32:05] [trace] [  JLink] - JLINK_HasError()  
[2025-Apr-22 11:32:05] [debug] [SeggerBackend] - read_access_port_register
[2025-Apr-22 11:32:05] [debug] [SeggerBackend] - ---just_read_access_port_register
[2025-Apr-22 11:32:05] [debug] [SeggerBackend] - ---just_select_access_port_register
[2025-Apr-22 11:32:05] [trace] [  JLink] - JLINK_CORESIGHT_ReadAPDPReg(AP reg 0x03)  
[2025-Apr-22 11:32:05] [trace] [  JLink] - Value=0x00000001
[2025-Apr-22 11:32:05] [trace] [  JLink] - - 0.285ms returns 0  
[2025-Apr-22 11:32:05] [trace] [  JLink] - JLINK_HasError()  
[2025-Apr-22 11:32:05] [debug] [SeggerBackend] - read_access_port_register
[2025-Apr-22 11:32:05] [debug] [SeggerBackend] - ---just_read_access_port_register
[2025-Apr-22 11:32:05] [debug] [SeggerBackend] - ---just_select_access_port_register
[2025-Apr-22 11:32:05] [trace] [  JLink] - JLINK_CORESIGHT_ReadAPDPReg(AP reg 0x03)  
[2025-Apr-22 11:32:05] [trace] [  JLink] - Value=0x00000001
[2025-Apr-22 11:32:05] [trace] [  JLink] - - 0.236ms returns 0  
[2025-Apr-22 11:32:05] [trace] [  JLink] - JLINK_HasError()  
[2025-Apr-22 11:32:05] [ info] [  nRF52] - Protection status read as NONE
[2025-Apr-22 11:32:05] [debug] [SeggerBackend] - read_u32
[2025-Apr-22 11:32:05] [debug] [SeggerBackend] - ---just_connect_to_device
[2025-Apr-22 11:32:05] [debug] [SeggerBackend] - is_connected_to_device
[2025-Apr-22 11:32:05] [trace] [  JLink] - JLINK_IsConnected()  
[2025-Apr-22 11:32:05] [trace] [  JLink] - - 0.003ms returns FALSE  
[2025-Apr-22 11:32:05] [trace] [  JLink] - JLINK_HasError()  
[2025-Apr-22 11:32:05] [debug] [SeggerBackend] - ---set_coresight_ahb_ap_index
[2025-Apr-22 11:32:05] [trace] [  JLink] - JLINK_ExecCommand("CORESIGHT_SetIndexAHBAPToUse = 0", ...).   
[2025-Apr-22 11:32:05] [trace] [  JLink] - - 0.002ms returns 0x00  
[2025-Apr-22 11:32:05] [trace] [  JLink] - JLINK_HasError()  
[2025-Apr-22 11:32:05] [trace] [  JLink] - JLINK_ExecCommand("device = nRF52", ...).   
[2025-Apr-22 11:32:05] [trace] [  JLink] - Device "NRF52" selected.
[2025-Apr-22 11:32:05] [trace] [  JLink] - Device "NRF52" selected.
[2025-Apr-22 11:32:05] [trace] [  JLink] - - 0.339ms returns 0x00  
[2025-Apr-22 11:32:05] [trace] [  JLink] - JLINK_HasError()  
[2025-Apr-22 11:32:05] [debug] [SeggerBackend] - ---just_write_debug_port_register
[2025-Apr-22 11:32:05] [debug] [SeggerBackend] - ---just_select_debug_port_register
[2025-Apr-22 11:32:05] [trace] [  JLink] - JLINK_CORESIGHT_WriteAPDPReg(DP reg 0x02, 0x00000000)  
[2025-Apr-22 11:32:05] [trace] [  JLink] - - 0.155ms returns 0  
[2025-Apr-22 11:32:05] [trace] [  JLink] - JLINK_HasError()  
[2025-Apr-22 11:32:05] [trace] [  JLink] - JLINK_Connect()  
[2025-Apr-22 11:32:05] [trace] [  JLink] - InitTarget() start
[2025-Apr-22 11:32:05] [trace] [  JLink] - InitTarget() start
[2025-Apr-22 11:32:05] [trace] [  JLink] -  J-Link Script File: Executing InitTarget() 
[2025-Apr-22 11:32:05] [trace] [  JLink] - InitTarget() end
[2025-Apr-22 11:32:05] [trace] [  JLink] - InitTarget() end
[2025-Apr-22 11:32:05] [trace] [  JLink] - Found SW-DP with ID 0x2BA01477
[2025-Apr-22 11:32:05] [trace] [  JLink] - Found SW-DP with ID 0x2BA01477
[2025-Apr-22 11:32:05] [trace] [  JLink] - DPIDR: 0x2BA01477
[2025-Apr-22 11:32:05] [trace] [  JLink] - DPIDR: 0x2BA01477
[2025-Apr-22 11:32:05] [trace] [  JLink] - CoreSight SoC-400 or earlier
[2025-Apr-22 11:32:05] [trace] [  JLink] - CoreSight SoC-400 or earlier
[2025-Apr-22 11:32:05] [trace] [  JLink] - AP map detection skipped. Manually configured AP map found.
[2025-Apr-22 11:32:05] [trace] [  JLink] - AP map detection skipped. Manually configured AP map found.
[2025-Apr-22 11:32:05] [trace] [  JLink] - AP[0]: AHB-AP (IDR: Not set)
[2025-Apr-22 11:32:05] [trace] [  JLink] - AP[0]: AHB-AP (IDR: Not set)
[2025-Apr-22 11:32:05] [trace] [  JLink] - AP[0]: Core found
[2025-Apr-22 11:32:05] [trace] [  JLink] - AP[0]: Core found
[2025-Apr-22 11:32:05] [trace] [  JLink] - AP[0]: AHB-AP ROM base: 0xE00FF000
[2025-Apr-22 11:32:05] [trace] [  JLink] - AP[0]: AHB-AP ROM base: 0xE00FF000
[2025-Apr-22 11:32:05] [trace] [  JLink] - CPUID register: 0x410FC241. Implementer code: 0x41 (ARM)
[2025-Apr-22 11:32:05] [trace] [  JLink] - CPUID register: 0x410FC241. Implementer code: 0x41 (ARM)
[2025-Apr-22 11:32:05] [trace] [  JLink] - Found Cortex-M4 r0p1, Little endian.
[2025-Apr-22 11:32:05] [trace] [  JLink] - Found Cortex-M4 r0p1, Little endian.
[2025-Apr-22 11:32:05] [trace] [  JLink] - -- Max. mem block: 0x0003C898
[2025-Apr-22 11:32:05] [trace] [  JLink] - CPU_ReadMem(4 bytes @ 0xE000EDF0)
[2025-Apr-22 11:32:05] [trace] [  JLink] - CPU_WriteMem(4 bytes @ 0xE000EDF0)
[2025-Apr-22 11:32:05] [trace] [  JLink] - CPU_ReadMem(4 bytes @ 0xE0002000)
[2025-Apr-22 11:32:05] [trace] [ Client] - Command read_device_info executed for 119 milliseconds with result 0
[2025-Apr-22 11:32:05] [debug] [ Client] - read_memory_descriptors
[2025-Apr-22 11:32:05] [trace] [  JLink] - FPUnit: 6 code (BP) slots and 2 literal slots
[2025-Apr-22 11:32:05] [trace] [  JLink] - FPUnit: 6 code (BP) slots and 2 literal slots
[2025-Apr-22 11:32:05] [trace] [  JLink] - CPU_ReadMem(4 bytes @ 0xE000EDFC)
[2025-Apr-22 11:32:05] [trace] [  JLink] - CPU_WriteMem(4 bytes @ 0xE000EDFC)
[2025-Apr-22 11:32:05] [trace] [  JLink] - CPU_ReadMem(4 bytes @ 0xE0001000)
[2025-Apr-22 11:32:05] [trace] [  JLink] - CPU_WriteMem(4 bytes @ 0xE0001000)
[2025-Apr-22 11:32:05] [trace] [  JLink] - CPU_ReadMem(4 bytes @ 0xE000ED88)
[2025-Apr-22 11:32:05] [trace] [  JLink] - CPU_WriteMem(4 bytes @ 0xE000ED88)
[2025-Apr-22 11:32:05] [trace] [  JLink] - CPU_ReadMem(4 bytes @ 0xE000ED88)
[2025-Apr-22 11:32:05] [trace] [  JLink] - CPU_WriteMem(4 bytes @ 0xE000ED88)
[2025-Apr-22 11:32:05] [trace] [  JLink] - CoreSight components:
[2025-Apr-22 11:32:05] [trace] [  JLink] - CoreSight components:
[2025-Apr-22 11:32:05] [trace] [  JLink] - ROMTbl[0] @ E00FF000
[2025-Apr-22 11:32:05] [trace] [  JLink] - ROMTbl[0] @ E00FF000
[2025-Apr-22 11:32:05] [trace] [  JLink] - CPU_ReadMem(64 bytes @ 0xE00FF000)
[2025-Apr-22 11:32:05] [trace] [  JLink] - CPU_ReadMem(32 bytes @ 0xE000EFE0)
[2025-Apr-22 11:32:05] [trace] [  JLink] - [0][0]: E000E000 CID B105E00D PID 000BB00C SCS-M7
[2025-Apr-22 11:32:05] [trace] [  JLink] - [0][0]: E000E000 CID B105E00D PID 000BB00C SCS-M7
[2025-Apr-22 11:32:05] [trace] [  JLink] - CPU_ReadMem(32 bytes @ 0xE0001FE0)
[2025-Apr-22 11:32:05] [trace] [  JLink] - [0][1]: E0001000 CID B105E00D PID 003BB002 DWT
[2025-Apr-22 11:32:05] [trace] [  JLink] - [0][1]: E0001000 CID B105E00D PID 003BB002 DWT
[2025-Apr-22 11:32:05] [trace] [  JLink] - CPU_ReadMem(32 bytes @ 0xE0002FE0)
[2025-Apr-22 11:32:05] [trace] [  JLink] - [0][2]: E0002000 CID B105E00D PID 002BB003 FPB
[2025-Apr-22 11:32:05] [trace] [  JLink] - [0][2]: E0002000 CID B105E00D PID 002BB003 FPB
[2025-Apr-22 11:32:05] [trace] [  JLink] - CPU_ReadMem(32 bytes @ 0xE0000FE0)
[2025-Apr-22 11:32:05] [trace] [  JLink] - [0][3]: E0000000 CID B105E00D PID 003BB001 ITM
[2025-Apr-22 11:32:05] [trace] [  JLink] - [0][3]: E0000000 CID B105E00D PID 003BB001 ITM
[2025-Apr-22 11:32:05] [trace] [  JLink] - CPU_ReadMem(32 bytes @ 0xE0040FE0)
[2025-Apr-22 11:32:05] [trace] [  JLink] - [0][4]: E0040000 CID B105900D PID 000BB9A1 TPIU
[2025-Apr-22 11:32:05] [trace] [  JLink] - [0][4]: E0040000 CID B105900D PID 000BB9A1 TPIU
[2025-Apr-22 11:32:05] [trace] [  JLink] - CPU_ReadMem(32 bytes @ 0xE0041FE0)
[2025-Apr-22 11:32:05] [trace] [  JLink] - [0][5]: E0041000 CID B105900D PID 000BB925 ETM
[2025-Apr-22 11:32:05] [trace] [  JLink] - [0][5]: E0041000 CID B105900D PID 000BB925 ETM
[2025-Apr-22 11:32:05] [trace] [  JLink] - - 115.617ms returns 0x00  
[2025-Apr-22 11:32:05] [trace] [  JLink] - JLINK_HasError()  
[2025-Apr-22 11:32:05] [trace] [  JLink] - JLINK_CORE_GetFound()  
[2025-Apr-22 11:32:05] [trace] [  JLink] - - 0.004ms returns 0xE0000FF  
[2025-Apr-22 11:32:05] [debug] [SeggerBackend] - ---just_read_u32
[2025-Apr-22 11:32:05] [debug] [SeggerBackend] - ---just_invalidate_cache
[2025-Apr-22 11:32:05] [trace] [  JLink] - JLINK_ExecCommand("InvalidateCache", ...).   
[2025-Apr-22 11:32:05] [trace] [  JLink] - - 0.007ms returns 0x00  
[2025-Apr-22 11:32:05] [trace] [  JLink] - JLINK_HasError()  
[2025-Apr-22 11:32:05] [trace] [  JLink] - JLINK_ReadMemU32(0x10000130, 0x1 Items)  
[2025-Apr-22 11:32:05] [trace] [  JLink] - CPU_ReadMem(4 bytes @ 0x10000130)
[2025-Apr-22 11:32:05] [trace] [  JLink] - Data:  06 00 00 00
[2025-Apr-22 11:32:05] [trace] [  JLink] - - 0.285ms returns 1 (0x1)  
[2025-Apr-22 11:32:05] [trace] [  JLink] - JLINK_HasError()  
[2025-Apr-22 11:32:05] [debug] [SeggerBackend] - read_u32
[2025-Apr-22 11:32:05] [debug] [SeggerBackend] - ---just_connect_to_device
[2025-Apr-22 11:32:05] [debug] [SeggerBackend] - is_connected_to_device
[2025-Apr-22 11:32:05] [debug] [SeggerBackend] - ---just_read_u32
[2025-Apr-22 11:32:05] [debug] [SeggerBackend] - ---just_invalidate_cache
[2025-Apr-22 11:32:05] [trace] [  JLink] - JLINK_ExecCommand("InvalidateCache", ...).   
[2025-Apr-22 11:32:05] [trace] [  JLink] - - 0.004ms returns 0x00  
[2025-Apr-22 11:32:05] [trace] [  JLink] - JLINK_HasError()  
[2025-Apr-22 11:32:05] [trace] [  JLink] - JLINK_ReadMemU32(0x10000134, 0x1 Items)  
[2025-Apr-22 11:32:05] [trace] [  JLink] - CPU_ReadMem(4 bytes @ 0x10000134)
[2025-Apr-22 11:32:05] [trace] [  JLink] - Data:  07 00 00 00
[2025-Apr-22 11:32:05] [trace] [  JLink] - - 0.274ms returns 1 (0x1)  
[2025-Apr-22 11:32:05] [trace] [  JLink] - JLINK_HasError()  
[2025-Apr-22 11:32:05] [debug] [  nRF52] - Just_decode_device_version
[2025-Apr-22 11:32:05] [debug] [SeggerBackend] - read_u32
[2025-Apr-22 11:32:05] [debug] [SeggerBackend] - ---just_connect_to_device
[2025-Apr-22 11:32:05] [debug] [SeggerBackend] - is_connected_to_device
[2025-Apr-22 11:32:05] [debug] [SeggerBackend] - ---just_read_u32
[2025-Apr-22 11:32:05] [debug] [SeggerBackend] - ---just_invalidate_cache
[2025-Apr-22 11:32:05] [trace] [  JLink] - JLINK_ExecCommand("InvalidateCache", ...).   
[2025-Apr-22 11:32:05] [trace] [  JLink] - - 0.004ms returns 0x00  
[2025-Apr-22 11:32:05] [trace] [  JLink] - JLINK_HasError()  
[2025-Apr-22 11:32:05] [trace] [  JLink] - JLINK_ReadMemU32(0x10000110, 0x1 Items)  
[2025-Apr-22 11:32:05] [trace] [  JLink] - CPU_ReadMem(4 bytes @ 0x10000110)
[2025-Apr-22 11:32:05] [trace] [  JLink] - Data:  00 02 00 00
[2025-Apr-22 11:32:05] [trace] [  JLink] - - 0.310ms returns 1 (0x1)  
[2025-Apr-22 11:32:05] [trace] [  JLink] - JLINK_HasError()  
[2025-Apr-22 11:32:05] [trace] [  JLink] - - 0.004ms  
[2025-Apr-22 11:32:05] [trace] [ Worker] - Command read_device_info executed for 119 milliseconds with result 0
[2025-Apr-22 11:32:05] [debug] [  nRF52] - read_memory_descriptors
[2025-Apr-22 11:32:05] [debug] [SeggerBackend] - is_connected_to_emu
[2025-Apr-22 11:32:05] [trace] [  JLink] - JLINK_IsOpen()  
[2025-Apr-22 11:32:05] [trace] [  JLink] - - 0.005ms returns 0x01  
[2025-Apr-22 11:32:05] [trace] [  JLink] - JLINK_HasError()  
[2025-Apr-22 11:32:05] [trace] [  JLink] - JLINK_Lock()  
[2025-Apr-22 11:32:05] [debug] [  nRF52] - Just_read_memory_descriptors
[2025-Apr-22 11:32:05] [debug] [  nRF52] - Just_readback_status
[2025-Apr-22 11:32:05] [debug] [  nRF52] - Just_is_ctrl_ap_available
[2025-Apr-22 11:32:05] [debug] [SeggerBackend] - read_access_port_register
[2025-Apr-22 11:32:05] [debug] [SeggerBackend] - ---just_read_access_port_register
[2025-Apr-22 11:32:05] [debug] [SeggerBackend] - ---just_is_debug_region_powered
[2025-Apr-22 11:32:05] [debug] [SeggerBackend] - ---just_read_debug_port_register
[2025-Apr-22 11:32:05] [debug] [SeggerBackend] - ---just_select_debug_port_register
[2025-Apr-22 11:32:05] [debug] [SeggerBackend] - Select AP 255, DP Bank 0, AP Bank 255
[2025-Apr-22 11:32:05] [trace] [  JLink] - JLINK_CORESIGHT_WriteAPDPReg(DP reg 0x02, 0x00000000)  
[2025-Apr-22 11:32:05] [trace] [  JLink] - - 0.160ms returns 0  
[2025-Apr-22 11:32:05] [trace] [  JLink] - JLINK_HasError()  
[2025-Apr-22 11:32:05] [trace] [  JLink] - JLINK_CORESIGHT_ReadAPDPReg(DP reg 0x01)  
[2025-Apr-22 11:32:05] [trace] [  JLink] - Value=0xF0000040
[2025-Apr-22 11:32:05] [trace] [  JLink] - - 0.153ms returns 0  
[2025-Apr-22 11:32:05] [trace] [  JLink] - JLINK_HasError()  
[2025-Apr-22 11:32:05] [debug] [SeggerBackend] - ---just_select_access_port_register
[2025-Apr-22 11:32:05] [debug] [SeggerBackend] - Select AP 1, DP Bank 0, AP Bank 15
[2025-Apr-22 11:32:05] [trace] [  JLink] - JLINK_CORESIGHT_WriteAPDPReg(DP reg 0x02, 0x010000F0)  
[2025-Apr-22 11:32:05] [trace] [  JLink] - - 0.242ms returns 0  
[2025-Apr-22 11:32:05] [trace] [  JLink] - JLINK_HasError()  
[2025-Apr-22 11:32:05] [trace] [  JLink] - JLINK_CORESIGHT_ReadAPDPReg(AP reg 0x03)  
[2025-Apr-22 11:32:05] [trace] [  JLink] - Value=0x02880000
[2025-Apr-22 11:32:05] [trace] [  JLink] - - 0.176ms returns 0  
[2025-Apr-22 11:32:05] [trace] [  JLink] - JLINK_HasError()  
[2025-Apr-22 11:32:05] [debug] [SeggerBackend] - read_access_port_register
[2025-Apr-22 11:32:05] [debug] [SeggerBackend] - ---just_read_access_port_register
[2025-Apr-22 11:32:05] [debug] [SeggerBackend] - ---just_select_access_port_register
[2025-Apr-22 11:32:05] [trace] [  JLink] - JLINK_CORESIGHT_ReadAPDPReg(AP reg 0x03)  
[2025-Apr-22 11:32:05] [trace] [  JLink] - Value=0x02880000
[2025-Apr-22 11:32:05] [trace] [  JLink] - - 0.223ms returns 0  
[2025-Apr-22 11:32:05] [trace] [  JLink] - JLINK_HasError()  
[2025-Apr-22 11:32:05] [debug] [SeggerBackend] - read_access_port_register
[2025-Apr-22 11:32:05] [debug] [SeggerBackend] - ---just_read_access_port_register
[2025-Apr-22 11:32:05] [debug] [SeggerBackend] - ---just_select_access_port_register
[2025-Apr-22 11:32:05] [trace] [  JLink] - JLINK_CORESIGHT_ReadAPDPReg(AP reg 0x03)  
[2025-Apr-22 11:32:05] [trace] [ Client] - Command read_memory_descriptors executed for 5 milliseconds with result 0
[2025-Apr-22 11:32:05] [debug] [ Client] - read_memory_descriptors
[2025-Apr-22 11:32:05] [trace] [ Client] - Command read_memory_descriptors executed for 5 milliseconds with result 0
[2025-Apr-22 11:32:05] [debug] [ Client] - read_page_sizes
[2025-Apr-22 11:32:05] [trace] [ Client] - Command read_page_sizes executed for 0 milliseconds with result 0
[2025-Apr-22 11:32:05] [debug] [ Client] - read_page_sizes
[2025-Apr-22 11:32:05] [trace] [ Client] - Command read_page_sizes executed for 0 milliseconds with result 0
[2025-Apr-22 11:32:05] [debug] [ Client] - read_page_sizes
[2025-Apr-22 11:32:05] [trace] [ Client] - Command read_page_sizes executed for 0 milliseconds with result 0
[2025-Apr-22 11:32:05] [debug] [ Client] - read_page_sizes
[2025-Apr-22 11:32:05] [trace] [ Client] - Command read_page_sizes executed for 0 milliseconds with result 0
[2025-Apr-22 11:32:05] [debug] [ Client] - read_page_sizes
[2025-Apr-22 11:32:05] [trace] [ Client] - Command read_page_sizes executed for 0 milliseconds with result 0
[2025-Apr-22 11:32:05] [debug] [ Client] - read_page_sizes
[2025-Apr-22 11:32:05] [trace] [ Client] - Command read_page_sizes executed for 0 milliseconds with result 0
[2025-Apr-22 11:32:05] [debug] [ Client] - read_page_sizes
[2025-Apr-22 11:32:05] [trace] [ Client] - Command read_page_sizes executed for 0 milliseconds with result 0
[2025-Apr-22 11:32:05] [debug] [ Client] - read_page_sizes
[2025-Apr-22 11:32:05] [trace] [ Client] - Command read_page_sizes executed for 0 milliseconds with result 0
[2025-Apr-22 11:32:05] [debug] [ Client] - read_page_sizes
[2025-Apr-22 11:32:05] [trace] [ Client] - Command read_page_sizes executed for 0 milliseconds with result 0
[2025-Apr-22 11:32:05] [debug] [ Client] - read_page_sizes
[2025-Apr-22 11:32:05] [trace] [ Client] - Command read_page_sizes executed for 0 milliseconds with result 0
[2025-Apr-22 11:32:05] [trace] [  JLink] - Value=0x02880000
[2025-Apr-22 11:32:05] [trace] [  JLink] - - 0.178ms returns 0  
[2025-Apr-22 11:32:05] [trace] [  JLink] - JLINK_HasError()  
[2025-Apr-22 11:32:05] [debug] [SeggerBackend] - read_access_port_register
[2025-Apr-22 11:32:05] [debug] [SeggerBackend] - ---just_read_access_port_register
[2025-Apr-22 11:32:05] [debug] [SeggerBackend] - ---just_select_access_port_register
[2025-Apr-22 11:32:05] [trace] [  JLink] - JLINK_CORESIGHT_ReadAPDPReg(AP reg 0x03)  
[2025-Apr-22 11:32:05] [trace] [  JLink] - Value=0x02880000
[2025-Apr-22 11:32:05] [trace] [  JLink] - - 0.188ms returns 0  
[2025-Apr-22 11:32:05] [trace] [  JLink] - JLINK_HasError()  
[2025-Apr-22 11:32:05] [debug] [SeggerBackend] - read_access_port_register
[2025-Apr-22 11:32:05] [debug] [SeggerBackend] - ---just_read_access_port_register
[2025-Apr-22 11:32:05] [debug] [SeggerBackend] - ---just_select_access_port_register
[2025-Apr-22 11:32:05] [debug] [SeggerBackend] - Select AP 1, DP Bank 0, AP Bank 0
[2025-Apr-22 11:32:05] [trace] [  JLink] - JLINK_CORESIGHT_WriteAPDPReg(DP reg 0x02, 0x01000000)  
[2025-Apr-22 11:32:05] [trace] [  JLink] - - 0.147ms returns 0  
[2025-Apr-22 11:32:05] [trace] [  JLink] - JLINK_HasError()  
[2025-Apr-22 11:32:05] [trace] [  JLink] - JLINK_CORESIGHT_ReadAPDPReg(AP reg 0x03)  
[2025-Apr-22 11:32:05] [trace] [  JLink] - Value=0x00000001
[2025-Apr-22 11:32:05] [trace] [  JLink] - - 0.178ms returns 0  
[2025-Apr-22 11:32:05] [trace] [  JLink] - JLINK_HasError()  
[2025-Apr-22 11:32:05] [debug] [SeggerBackend] - read_access_port_register
[2025-Apr-22 11:32:05] [debug] [SeggerBackend] - ---just_read_access_port_register
[2025-Apr-22 11:32:05] [debug] [SeggerBackend] - ---just_select_access_port_register
[2025-Apr-22 11:32:05] [trace] [  JLink] - JLINK_CORESIGHT_ReadAPDPReg(AP reg 0x03)  
[2025-Apr-22 11:32:05] [trace] [  JLink] - Value=0x00000001
[2025-Apr-22 11:32:05] [trace] [  JLink] - - 0.188ms returns 0  
[2025-Apr-22 11:32:05] [trace] [  JLink] - JLINK_HasError()  
[2025-Apr-22 11:32:05] [debug] [SeggerBackend] - read_access_port_register
[2025-Apr-22 11:32:05] [debug] [SeggerBackend] - ---just_read_access_port_register
[2025-Apr-22 11:32:05] [debug] [SeggerBackend] - ---just_select_access_port_register
[2025-Apr-22 11:32:05] [trace] [  JLink] - JLINK_CORESIGHT_ReadAPDPReg(AP reg 0x03)  
[2025-Apr-22 11:32:05] [trace] [  JLink] - Value=0x00000001
[2025-Apr-22 11:32:05] [trace] [  JLink] - - 0.175ms returns 0  
[2025-Apr-22 11:32:05] [trace] [  JLink] - JLINK_HasError()  
[2025-Apr-22 11:32:05] [debug] [SeggerBackend] - read_access_port_register
[2025-Apr-22 11:32:05] [debug] [SeggerBackend] - ---just_read_access_port_register
[2025-Apr-22 11:32:05] [debug] [SeggerBackend] - ---just_select_access_port_register
[2025-Apr-22 11:32:05] [trace] [  JLink] - JLINK_CORESIGHT_ReadAPDPReg(AP reg 0x03)  
[2025-Apr-22 11:32:05] [trace] [  JLink] - Value=0x00000001
[2025-Apr-22 11:32:05] [trace] [  JLink] - - 0.176ms returns 0  
[2025-Apr-22 11:32:05] [trace] [  JLink] - JLINK_HasError()  
[2025-Apr-22 11:32:05] [ info] [  nRF52] - Protection status read as NONE
[2025-Apr-22 11:32:05] [debug] [  nRF52] - update_device_memory_list
[2025-Apr-22 11:32:05] [debug] [  nRF52] - Just_read_device_version
[2025-Apr-22 11:32:05] [debug] [  nRF52] - Just_readback_status
[2025-Apr-22 11:32:05] [debug] [  nRF52] - Just_is_ctrl_ap_available
[2025-Apr-22 11:32:05] [debug] [SeggerBackend] - read_access_port_register
[2025-Apr-22 11:32:05] [debug] [SeggerBackend] - ---just_read_access_port_register
[2025-Apr-22 11:32:05] [debug] [SeggerBackend] - ---just_select_access_port_register
[2025-Apr-22 11:32:05] [debug] [SeggerBackend] - Select AP 1, DP Bank 0, AP Bank 15
[2025-Apr-22 11:32:05] [trace] [  JLink] - JLINK_CORESIGHT_WriteAPDPReg(DP reg 0x02, 0x010000F0)  
[2025-Apr-22 11:32:05] [trace] [  JLink] - - 0.147ms returns 0  
[2025-Apr-22 11:32:05] [trace] [  JLink] - JLINK_HasError()  
[2025-Apr-22 11:32:05] [trace] [  JLink] - JLINK_CORESIGHT_ReadAPDPReg(AP reg 0x03)  
[2025-Apr-22 11:32:05] [trace] [  JLink] - Value=0x02880000
[2025-Apr-22 11:32:05] [trace] [  JLink] - - 0.178ms returns 0  
[2025-Apr-22 11:32:05] [trace] [  JLink] - JLINK_HasError()  
[2025-Apr-22 11:32:05] [debug] [SeggerBackend] - read_access_port_register
[2025-Apr-22 11:32:05] [debug] [SeggerBackend] - ---just_read_access_port_register
[2025-Apr-22 11:32:05] [debug] [SeggerBackend] - ---just_select_access_port_register
[2025-Apr-22 11:32:05] [trace] [  JLink] - JLINK_CORESIGHT_ReadAPDPReg(AP reg 0x03)  
[2025-Apr-22 11:32:05] [trace] [  JLink] - Value=0x02880000
[2025-Apr-22 11:32:05] [trace] [  JLink] - - 0.174ms returns 0  
[2025-Apr-22 11:32:05] [trace] [  JLink] - JLINK_HasError()  
[2025-Apr-22 11:32:05] [debug] [SeggerBackend] - read_access_port_register
[2025-Apr-22 11:32:05] [debug] [SeggerBackend] - ---just_read_access_port_register
[2025-Apr-22 11:32:05] [debug] [SeggerBackend] - ---just_select_access_port_register
[2025-Apr-22 11:32:05] [trace] [  JLink] - JLINK_CORESIGHT_ReadAPDPReg(AP reg 0x03)  
[2025-Apr-22 11:32:05] [trace] [  JLink] - Value=0x02880000
[2025-Apr-22 11:32:05] [trace] [  JLink] - - 0.203ms returns 0  
[2025-Apr-22 11:32:05] [trace] [  JLink] - JLINK_HasError()  
[2025-Apr-22 11:32:05] [debug] [SeggerBackend] - read_access_port_register
[2025-Apr-22 11:32:05] [debug] [SeggerBackend] - ---just_read_access_port_register
[2025-Apr-22 11:32:05] [debug] [SeggerBackend] - ---just_select_access_port_register
[2025-Apr-22 11:32:05] [trace] [  JLink] - JLINK_CORESIGHT_ReadAPDPReg(AP reg 0x03)  
[2025-Apr-22 11:32:05] [trace] [  JLink] - Value=0x02880000
[2025-Apr-22 11:32:05] [trace] [  JLink] - - 0.173ms returns 0  
[2025-Apr-22 11:32:05] [trace] [  JLink] - JLINK_HasError()  
[2025-Apr-22 11:32:05] [debug] [SeggerBackend] - read_access_port_register
[2025-Apr-22 11:32:05] [debug] [SeggerBackend] - ---just_read_access_port_register
[2025-Apr-22 11:32:05] [debug] [SeggerBackend] - ---just_select_access_port_register
[2025-Apr-22 11:32:05] [debug] [SeggerBackend] - Select AP 1, DP Bank 0, AP Bank 0
[2025-Apr-22 11:32:05] [trace] [  JLink] - JLINK_CORESIGHT_WriteAPDPReg(DP reg 0x02, 0x01000000)  
[2025-Apr-22 11:32:05] [trace] [  JLink] - - 0.148ms returns 0  
[2025-Apr-22 11:32:05] [trace] [  JLink] - JLINK_HasError()  
[2025-Apr-22 11:32:05] [trace] [  JLink] - JLINK_CORESIGHT_ReadAPDPReg(AP reg 0x03)  
[2025-Apr-22 11:32:05] [trace] [  JLink] - Value=0x00000001
[2025-Apr-22 11:32:05] [trace] [  JLink] - - 0.289ms returns 0  
[2025-Apr-22 11:32:05] [trace] [  JLink] - JLINK_HasError()  
[2025-Apr-22 11:32:05] [debug] [SeggerBackend] - read_access_port_register
[2025-Apr-22 11:32:05] [debug] [SeggerBackend] - ---just_read_access_port_register
[2025-Apr-22 11:32:05] [debug] [SeggerBackend] - ---just_select_access_port_register
[2025-Apr-22 11:32:05] [trace] [  JLink] - JLINK_CORESIGHT_ReadAPDPReg(AP reg 0x03)  
[2025-Apr-22 11:32:05] [trace] [  JLink] - Value=0x00000001
[2025-Apr-22 11:32:05] [trace] [  JLink] - - 0.241ms returns 0  
[2025-Apr-22 11:32:05] [trace] [  JLink] - JLINK_HasError()  
[2025-Apr-22 11:32:05] [debug] [SeggerBackend] - read_access_port_register
[2025-Apr-22 11:32:05] [debug] [SeggerBackend] - ---just_read_access_port_register
[2025-Apr-22 11:32:05] [debug] [SeggerBackend] - ---just_select_access_port_register
[2025-Apr-22 11:32:05] [trace] [  JLink] - JLINK_CORESIGHT_ReadAPDPReg(AP reg 0x03)  
[2025-Apr-22 11:32:05] [trace] [  JLink] - Value=0x00000001
[2025-Apr-22 11:32:05] [trace] [  JLink] - - 0.175ms returns 0  
[2025-Apr-22 11:32:05] [trace] [  JLink] - JLINK_HasError()  
[2025-Apr-22 11:32:05] [debug] [SeggerBackend] - read_access_port_register
[2025-Apr-22 11:32:05] [debug] [SeggerBackend] - ---just_read_access_port_register
[2025-Apr-22 11:32:05] [debug] [SeggerBackend] - ---just_select_access_port_register
[2025-Apr-22 11:32:05] [trace] [  JLink] - JLINK_CORESIGHT_ReadAPDPReg(AP reg 0x03)  
[2025-Apr-22 11:32:05] [trace] [  JLink] - Value=0x00000001
[2025-Apr-22 11:32:05] [trace] [  JLink] - - 0.176ms returns 0  
[2025-Apr-22 11:32:05] [trace] [  JLink] - JLINK_HasError()  
[2025-Apr-22 11:32:05] [ info] [  nRF52] - Protection status read as NONE
[2025-Apr-22 11:32:05] [debug] [SeggerBackend] - read_u32
[2025-Apr-22 11:32:05] [debug] [SeggerBackend] - ---just_connect_to_device
[2025-Apr-22 11:32:05] [debug] [SeggerBackend] - is_connected_to_device
[2025-Apr-22 11:32:05] [trace] [  JLink] - JLINK_IsConnected()  
[2025-Apr-22 11:32:05] [trace] [  JLink] - - 0.003ms returns TRUE  
[2025-Apr-22 11:32:05] [trace] [  JLink] - JLINK_HasError()  
[2025-Apr-22 11:32:05] [debug] [SeggerBackend] - ---just_read_u32
[2025-Apr-22 11:32:05] [debug] [SeggerBackend] - ---just_invalidate_cache
[2025-Apr-22 11:32:05] [trace] [  JLink] - JLINK_ExecCommand("InvalidateCache", ...).   
[2025-Apr-22 11:32:05] [trace] [  JLink] - - 0.004ms returns 0x00  
[2025-Apr-22 11:32:05] [trace] [  JLink] - JLINK_HasError()  
[2025-Apr-22 11:32:05] [debug] [SeggerBackend] - ---just_write_debug_port_register
[2025-Apr-22 11:32:05] [debug] [SeggerBackend] - ---just_select_debug_port_register
[2025-Apr-22 11:32:05] [trace] [  JLink] - JLINK_CORESIGHT_WriteAPDPReg(DP reg 0x02, 0x00000000)  
[2025-Apr-22 11:32:05] [trace] [  JLink] - - 0.149ms returns 0  
[2025-Apr-22 11:32:05] [trace] [  JLink] - JLINK_HasError()  
[2025-Apr-22 11:32:05] [trace] [  JLink] - JLINK_ReadMemU32(0x10000130, 0x1 Items)  
[2025-Apr-22 11:32:05] [trace] [  JLink] - CPU_ReadMem(4 bytes @ 0x10000130)
[2025-Apr-22 11:32:05] [trace] [  JLink] - Data:  06 00 00 00
[2025-Apr-22 11:32:05] [trace] [  JLink] - - 0.273ms returns 1 (0x1)  
[2025-Apr-22 11:32:05] [trace] [  JLink] - JLINK_HasError()  
[2025-Apr-22 11:32:05] [debug] [SeggerBackend] - read_u32
[2025-Apr-22 11:32:05] [debug] [SeggerBackend] - ---just_connect_to_device
[2025-Apr-22 11:32:05] [debug] [SeggerBackend] - is_connected_to_device
[2025-Apr-22 11:32:05] [debug] [SeggerBackend] - ---just_read_u32
[2025-Apr-22 11:32:05] [debug] [SeggerBackend] - ---just_invalidate_cache
[2025-Apr-22 11:32:05] [trace] [  JLink] - JLINK_ExecCommand("InvalidateCache", ...).   
[2025-Apr-22 11:32:05] [trace] [  JLink] - - 0.003ms returns 0x00  
[2025-Apr-22 11:32:05] [trace] [  JLink] - JLINK_HasError()  
[2025-Apr-22 11:32:05] [trace] [  JLink] - JLINK_ReadMemU32(0x10000134, 0x1 Items)  
[2025-Apr-22 11:32:05] [trace] [  JLink] - CPU_ReadMem(4 bytes @ 0x10000134)
[2025-Apr-22 11:32:05] [trace] [  JLink] - Data:  07 00 00 00
[2025-Apr-22 11:32:05] [trace] [  JLink] - - 0.274ms returns 1 (0x1)  
[2025-Apr-22 11:32:05] [trace] [  JLink] - JLINK_HasError()  
[2025-Apr-22 11:32:05] [debug] [  nRF52] - Just_decode_device_version
[2025-Apr-22 11:32:05] [debug] [SeggerBackend] - read_u32
[2025-Apr-22 11:32:05] [debug] [SeggerBackend] - ---just_connect_to_device
[2025-Apr-22 11:32:05] [debug] [SeggerBackend] - is_connected_to_device
[2025-Apr-22 11:32:05] [debug] [SeggerBackend] - ---just_read_u32
[2025-Apr-22 11:32:05] [debug] [SeggerBackend] - ---just_invalidate_cache
[2025-Apr-22 11:32:05] [trace] [  JLink] - JLINK_ExecCommand("InvalidateCache", ...).   
[2025-Apr-22 11:32:05] [trace] [  JLink] - - 0.004ms returns 0x00  
[2025-Apr-22 11:32:05] [trace] [  JLink] - JLINK_HasError()  
[2025-Apr-22 11:32:05] [trace] [  JLink] - JLINK_ReadMemU32(0x10000110, 0x1 Items)  
[2025-Apr-22 11:32:05] [trace] [  JLink] - CPU_ReadMem(4 bytes @ 0x10000110)
[2025-Apr-22 11:32:05] [trace] [  JLink] - Data:  00 02 00 00
[2025-Apr-22 11:32:05] [trace] [  JLink] - - 0.270ms returns 1 (0x1)  
[2025-Apr-22 11:32:05] [trace] [  JLink] - JLINK_HasError()  
[2025-Apr-22 11:32:05] [debug] [  nRF52] - Read memory description from family DLL: "Flash" [0x00000000-0x00080000] 128 pages (128x4kB) static ID0
[2025-Apr-22 11:32:05] [debug] [  nRF52] - Read memory description from family DLL: "Code RAM" [0x00800000-0x00810000] 16 pages (16x4kB) static ID8388608
[2025-Apr-22 11:32:05] [debug] [  nRF52] - Read memory description from family DLL: "FICR" [0x10000000-0x10001000] 1 pages (1x4kB) static ID268435456
[2025-Apr-22 11:32:05] [debug] [  nRF52] - Read memory description from family DLL: "UICR" [0x10001000-0x10002000] 1 pages (1x4kB) static ID268439552
[2025-Apr-22 11:32:05] [debug] [  nRF52] - Read memory description from family DLL: "RAM" [0x20000000-0x20010000] 16 pages (16x4kB) static ID536870912
[2025-Apr-22 11:32:05] [trace] [  JLink] - - 0.024ms  
[2025-Apr-22 11:32:05] [trace] [ Worker] - Command read_memory_descriptors executed for 5 milliseconds with result 0
[2025-Apr-22 11:32:05] [debug] [  nRF52] - read_memory_descriptors
[2025-Apr-22 11:32:05] [debug] [SeggerBackend] - is_connected_to_emu
[2025-Apr-22 11:32:05] [trace] [  JLink] - JLINK_IsOpen()  
[2025-Apr-22 11:32:05] [trace] [  JLink] - - 0.004ms returns 0x01  
[2025-Apr-22 11:32:05] [trace] [  JLink] - JLINK_HasError()  
[2025-Apr-22 11:32:05] [trace] [  JLink] - JLINK_Lock()  
[2025-Apr-22 11:32:05] [debug] [  nRF52] - Just_read_memory_descriptors
[2025-Apr-22 11:32:05] [debug] [  nRF52] - Just_readback_status
[2025-Apr-22 11:32:05] [debug] [  nRF52] - Just_is_ctrl_ap_available
[2025-Apr-22 11:32:05] [debug] [SeggerBackend] - read_access_port_register
[2025-Apr-22 11:32:05] [debug] [SeggerBackend] - ---just_read_access_port_register
[2025-Apr-22 11:32:05] [debug] [SeggerBackend] - ---just_is_debug_region_powered
[2025-Apr-22 11:32:05] [debug] [SeggerBackend] - ---just_read_debug_port_register
[2025-Apr-22 11:32:05] [debug] [SeggerBackend] - ---just_select_debug_port_register
[2025-Apr-22 11:32:05] [debug] [SeggerBackend] - Select AP 255, DP Bank 0, AP Bank 255
[2025-Apr-22 11:32:05] [trace] [  JLink] - JLINK_CORESIGHT_WriteAPDPReg(DP reg 0x02, 0x00000000)  
[2025-Apr-22 11:32:05] [trace] [  JLink] - - 0.163ms returns 0  
[2025-Apr-22 11:32:05] [trace] [  JLink] - JLINK_HasError()  
[2025-Apr-22 11:32:05] [trace] [  JLink] - JLINK_CORESIGHT_ReadAPDPReg(DP reg 0x01)  
[2025-Apr-22 11:32:05] [trace] [  JLink] - Value=0xF0000040
[2025-Apr-22 11:32:05] [trace] [  JLink] - - 0.151ms returns 0  
[2025-Apr-22 11:32:05] [trace] [  JLink] - JLINK_HasError()  
[2025-Apr-22 11:32:05] [debug] [SeggerBackend] - ---just_select_access_port_register
[2025-Apr-22 11:32:05] [debug] [SeggerBackend] - Select AP 1, DP Bank 0, AP Bank 15
[2025-Apr-22 11:32:05] [trace] [  JLink] - JLINK_CORESIGHT_WriteAPDPReg(DP reg 0x02, 0x010000F0)  
[2025-Apr-22 11:32:05] [trace] [  JLink] - - 0.218ms returns 0  
[2025-Apr-22 11:32:05] [trace] [  JLink] - JLINK_HasError()  
[2025-Apr-22 11:32:05] [trace] [  JLink] - JLINK_CORESIGHT_ReadAPDPReg(AP reg 0x03)  
[2025-Apr-22 11:32:05] [trace] [  JLink] - Value=0x02880000
[2025-Apr-22 11:32:05] [trace] [  JLink] - - 0.178ms returns 0  
[2025-Apr-22 11:32:05] [trace] [  JLink] - JLINK_HasError()  
[2025-Apr-22 11:32:05] [debug] [SeggerBackend] - read_access_port_register
[2025-Apr-22 11:32:05] [debug] [SeggerBackend] - ---just_read_access_port_register
[2025-Apr-22 11:32:05] [debug] [SeggerBackend] - ---just_select_access_port_register
[2025-Apr-22 11:32:05] [trace] [  JLink] - JLINK_CORESIGHT_ReadAPDPReg(AP reg 0x03)  
[2025-Apr-22 11:32:05] [trace] [  JLink] - Value=0x02880000
[2025-Apr-22 11:32:05] [trace] [  JLink] - - 0.175ms returns 0  
[2025-Apr-22 11:32:05] [trace] [  JLink] - JLINK_HasError()  
[2025-Apr-22 11:32:05] [debug] [SeggerBackend] - read_access_port_register
[2025-Apr-22 11:32:05] [debug] [SeggerBackend] - ---just_read_access_port_register
[2025-Apr-22 11:32:05] [debug] [SeggerBackend] - ---just_select_access_port_register
[2025-Apr-22 11:32:05] [trace] [  JLink] - JLINK_CORESIGHT_ReadAPDPReg(AP reg 0x03)  
[2025-Apr-22 11:32:05] [trace] [  JLink] - Value=0x02880000
[2025-Apr-22 11:32:05] [trace] [  JLink] - - 0.175ms returns 0  
[2025-Apr-22 11:32:05] [trace] [  JLink] - JLINK_HasError()  
[2025-Apr-22 11:32:05] [debug] [SeggerBackend] - read_access_port_register
[2025-Apr-22 11:32:05] [debug] [SeggerBackend] - ---just_read_access_port_register
[2025-Apr-22 11:32:05] [debug] [SeggerBackend] - ---just_select_access_port_register
[2025-Apr-22 11:32:05] [trace] [  JLink] - JLINK_CORESIGHT_ReadAPDPReg(AP reg 0x03)  
[2025-Apr-22 11:32:05] [trace] [  JLink] - Value=0x02880000
[2025-Apr-22 11:32:05] [trace] [  JLink] - - 0.175ms returns 0  
[2025-Apr-22 11:32:05] [trace] [  JLink] - JLINK_HasError()  
[2025-Apr-22 11:32:05] [debug] [SeggerBackend] - read_access_port_register
[2025-Apr-22 11:32:05] [debug] [SeggerBackend] - ---just_read_access_port_register
[2025-Apr-22 11:32:05] [debug] [SeggerBackend] - ---just_select_access_port_register
[2025-Apr-22 11:32:05] [debug] [SeggerBackend] - Select AP 1, DP Bank 0, AP Bank 0
[2025-Apr-22 11:32:05] [trace] [  JLink] - JLINK_CORESIGHT_WriteAPDPReg(DP reg 0x02, 0x01000000)  
[2025-Apr-22 11:32:05] [trace] [  JLink] - - 0.275ms returns 0  
[2025-Apr-22 11:32:05] [trace] [  JLink] - JLINK_HasError()  
[2025-Apr-22 11:32:05] [trace] [  JLink] - JLINK_CORESIGHT_ReadAPDPReg(AP reg 0x03)  
[2025-Apr-22 11:32:05] [trace] [  JLink] - Value=0x00000001
[2025-Apr-22 11:32:05] [trace] [  JLink] - - 0.178ms returns 0  
[2025-Apr-22 11:32:05] [trace] [  JLink] - JLINK_HasError()  
[2025-Apr-22 11:32:05] [debug] [SeggerBackend] - read_access_port_register
[2025-Apr-22 11:32:05] [debug] [SeggerBackend] - ---just_read_access_port_register
[2025-Apr-22 11:32:05] [debug] [SeggerBackend] - ---just_select_access_port_register
[2025-Apr-22 11:32:05] [trace] [  JLink] - JLINK_CORESIGHT_ReadAPDPReg(AP reg 0x03)  
[2025-Apr-22 11:32:05] [trace] [  JLink] - Value=0x00000001
[2025-Apr-22 11:32:05] [trace] [  JLink] - - 0.178ms returns 0  
[2025-Apr-22 11:32:05] [trace] [  JLink] - JLINK_HasError()  
[2025-Apr-22 11:32:05] [debug] [SeggerBackend] - read_access_port_register
[2025-Apr-22 11:32:05] [debug] [SeggerBackend] - ---just_read_access_port_register
[2025-Apr-22 11:32:05] [debug] [SeggerBackend] - ---just_select_access_port_register
[2025-Apr-22 11:32:05] [trace] [  JLink] - JLINK_CORESIGHT_ReadAPDPReg(AP reg 0x03)  
[2025-Apr-22 11:32:05] [trace] [  JLink] - Value=0x00000001
[2025-Apr-22 11:32:05] [trace] [  JLink] - - 0.177ms returns 0  
[2025-Apr-22 11:32:05] [trace] [  JLink] - JLINK_HasError()  
[2025-Apr-22 11:32:05] [debug] [SeggerBackend] - read_access_port_register
[2025-Apr-22 11:32:05] [debug] [SeggerBackend] - ---just_read_access_port_register
[2025-Apr-22 11:32:05] [debug] [SeggerBackend] - ---just_select_access_port_register
[2025-Apr-22 11:32:05] [trace] [  JLink] - JLINK_CORESIGHT_ReadAPDPReg(AP reg 0x03)  
[2025-Apr-22 11:32:05] [trace] [  JLink] - Value=0x00000001
[2025-Apr-22 11:32:05] [trace] [  JLink] - - 0.177ms returns 0  
[2025-Apr-22 11:32:05] [trace] [  JLink] - JLINK_HasError()  
[2025-Apr-22 11:32:05] [ info] [  nRF52] - Protection status read as NONE
[2025-Apr-22 11:32:05] [debug] [  nRF52] - update_device_memory_list
[2025-Apr-22 11:32:05] [debug] [  nRF52] - Just_read_device_version
[2025-Apr-22 11:32:05] [debug] [  nRF52] - Just_readback_status
[2025-Apr-22 11:32:05] [debug] [  nRF52] - Just_is_ctrl_ap_available
[2025-Apr-22 11:32:05] [debug] [SeggerBackend] - read_access_port_register
[2025-Apr-22 11:32:05] [debug] [SeggerBackend] - ---just_read_access_port_register
[2025-Apr-22 11:32:05] [debug] [SeggerBackend] - ---just_select_access_port_register
[2025-Apr-22 11:32:05] [debug] [SeggerBackend] - Select AP 1, DP Bank 0, AP Bank 15
[2025-Apr-22 11:32:05] [trace] [  JLink] - JLINK_CORESIGHT_WriteAPDPReg(DP reg 0x02, 0x010000F0)  
[2025-Apr-22 11:32:05] [trace] [  JLink] - - 0.149ms returns 0  
[2025-Apr-22 11:32:05] [trace] [  JLink] - JLINK_HasError()  
[2025-Apr-22 11:32:05] [trace] [  JLink] - JLINK_CORESIGHT_ReadAPDPReg(AP reg 0x03)  
[2025-Apr-22 11:32:05] [trace] [  JLink] - Value=0x02880000
[2025-Apr-22 11:32:05] [trace] [  JLink] - - 0.249ms returns 0  
[2025-Apr-22 11:32:05] [trace] [  JLink] - JLINK_HasError()  
[2025-Apr-22 11:32:05] [debug] [SeggerBackend] - read_access_port_register
[2025-Apr-22 11:32:05] [debug] [SeggerBackend] - ---just_read_access_port_register
[2025-Apr-22 11:32:05] [debug] [SeggerBackend] - ---just_select_access_port_register
[2025-Apr-22 11:32:05] [trace] [  JLink] - JLINK_CORESIGHT_ReadAPDPReg(AP reg 0x03)  
[2025-Apr-22 11:32:05] [trace] [  JLink] - Value=0x02880000
[2025-Apr-22 11:32:05] [trace] [  JLink] - - 0.175ms returns 0  
[2025-Apr-22 11:32:05] [trace] [  JLink] - JLINK_HasError()  
[2025-Apr-22 11:32:05] [debug] [SeggerBackend] - read_access_port_register
[2025-Apr-22 11:32:05] [debug] [SeggerBackend] - ---just_read_access_port_register
[2025-Apr-22 11:32:05] [debug] [SeggerBackend] - ---just_select_access_port_register
[2025-Apr-22 11:32:05] [trace] [  JLink] - JLINK_CORESIGHT_ReadAPDPReg(AP reg 0x03)  
[2025-Apr-22 11:32:05] [trace] [  JLink] - Value=0x02880000
[2025-Apr-22 11:32:05] [trace] [  JLink] - - 0.175ms returns 0  
[2025-Apr-22 11:32:05] [trace] [  JLink] - JLINK_HasError()  
[2025-Apr-22 11:32:05] [debug] [SeggerBackend] - read_access_port_register
